"time","iL[1]","iL[2]","iL[3]","vC[1]","vC[2]","vC[3]"
0,15.915494309189533,15.915494309189532,15.915494309189533,15.915494309189533,15.915494309189532,15.915494309189533
0.00020000000000000001,15.886203871007286,15.886203871007284,15.886203871007284,15.886203871007286,15.886203871007284,15.886203871007284
0.00040000000000000002,15.856967338142214,15.856967338142214,15.856967338142214,15.856967338142214,15.856967338142214,15.856967338142214
0.00060000000000000006,15.827784611388475,15.827784611388475,15.827784611388475,15.827784611388475,15.827784611388475,15.827784611388475
0.00080000000000000004,15.798655591722758,15.798655591722758,15.79865559172276,15.798655591722758,15.798655591722758,15.79865559172276
0.001,15.769580180304041,15.76958018030404,15.76958018030404,15.769580180304041,15.76958018030404,15.76958018030404
0.0012000000000000001,15.740558278473165,15.740558278473165,15.740558278473166,15.740558278473165,15.740558278473165,15.740558278473166
0.0014,15.711589787752542,15.711589787752541,15.711589787752542,15.711589787752542,15.711589787752541,15.711589787752542
0.0016000000000000001,15.68267460984586,15.68267460984586,15.68267460984586,15.68267460984586,15.68267460984586,15.68267460984586
0.0018000000000000002,15.653812646637661,15.653812646637659,15.653812646637659,15.653812646637661,15.653812646637659,15.653812646637659
0.002,15.625003800193094,15.625003800193092,15.625003800193094,15.625003800193094,15.625003800193092,15.625003800193094
0.0022000000000000001,15.596247972757517,15.596247972757515,15.596247972757515,15.596247972757517,15.596247972757515,15.596247972757515
0.0024000000000000002,15.567545066756196,15.567545066756196,15.567545066756198,15.567545066756196,15.567545066756196,15.567545066756198
0.0026000000000000003,15.538894984793998,15.538894984793997,15.538894984793998,15.538894984793998,15.538894984793997,15.538894984793998
0.0028,15.510297629654993,15.510297629654993,15.510297629654993,15.510297629654993,15.510297629654993,15.510297629654993
0.0030000000000000001,15.481752904302208,15.481752904302207,15.481752904302207,15.481752904302208,15.481752904302207,15.481752904302207
0.0032000000000000002,15.453260711877212,15.453260711877212,15.453260711877212,15.453260711877212,15.453260711877212,15.453260711877212
0.0034000000000000002,15.424820955699849,15.424820955699849,15.424820955699849,15.424820955699849,15.424820955699849,15.424820955699849
0.0036000000000000003,15.39643353926791,15.396433539267909,15.396433539267909,15.39643353926791,15.396433539267909,15.396433539267909
0.0038,15.368098366256739,15.368098366256739,15.36809836625674,15.368098366256739,15.368098366256739,15.36809836625674
0.0040000000000000001,15.339815340519007,15.339815340519005,15.339815340519007,15.339815340519007,15.339815340519005,15.339815340519007
0.0042000000000000006,15.31158436608429,15.31158436608429,15.31158436608429,15.31158436608429,15.31158436608429,15.31158436608429
0.0044000000000000003,15.283405347158801,15.283405347158801,15.283405347158801,15.283405347158801,15.283405347158801,15.283405347158801
0.0045999999999999999,15.255278188125061,15.255278188125061,15.255278188125061,15.255278188125061,15.255278188125061,15.255278188125061
0.0048000000000000004,15.227202793541531,15.22720279354153,15.227202793541531,15.227202793541531,15.22720279354153,15.227202793541531
0.0050000000000000001,15.19917906814236,15.199179068142358,15.199179068142358,15.19917906814236,15.199179068142358,15.199179068142358
0.0052000000000000006,15.171206916836994,15.171206916836992,15.171206916836994,15.171206916836994,15.171206916836992,15.171206916836994
0.0054000000000000003,15.143286244709881,15.143286244709879,15.143286244709881,15.143286244709881,15.143286244709879,15.143286244709881
0.0055999999999999999,15.115416957020166,15.115416957020166,15.115416957020166,15.115416957020166,15.115416957020166,15.115416957020166
0.0058000000000000005,15.087598959201337,15.087598959201337,15.087598959201337,15.087598959201337,15.087598959201337,15.087598959201337
0.0060000000000000001,15.059832156860937,15.059832156860937,15.059832156860937,15.059832156860937,15.059832156860937,15.059832156860937
0.0062000000000000006,15.032116455780207,15.032116455780207,15.032116455780207,15.032116455780207,15.032116455780207,15.032116455780207
0.0064000000000000003,15.004451761913785,15.004451761913783,15.004451761913785,15.004451761913785,15.004451761913783,15.004451761913785
0.0066,14.97683798138941,14.976837981389409,14.976837981389409,14.97683798138941,14.976837981389409,14.976837981389409
0.0068000000000000005,14.949275020507557,14.949275020507557,14.949275020507557,14.949275020507557,14.949275020507557,14.949275020507557
0.0070000000000000001,14.921762785741167,14.921762785741166,14.921762785741166,14.921762785741167,14.921762785741166,14.921762785741166
0.0072000000000000007,14.894301183735276,14.894301183735275,14.894301183735276,14.894301183735276,14.894301183735275,14.894301183735276
0.0074000000000000003,14.866890121306747,14.866890121306746,14.866890121306746,14.866890121306747,14.866890121306746,14.866890121306746
0.0076,14.839529505443942,14.83952950544394,14.839529505443943,14.839529505443942,14.83952950544394,14.839529505443943
0.0078000000000000005,14.812219243306377,14.812219243306377,14.812219243306378,14.812219243306377,14.812219243306377,14.812219243306378
0.0080000000000000002,14.78495924222444,14.78495924222444,14.78495924222444,14.78495924222444,14.78495924222444,14.78495924222444
0.0082000000000000007,14.757749409699075,14.757749409699075,14.757749409699077,14.757749409699075,14.757749409699075,14.757749409699077
0.0084000000000000012,14.730589653401438,14.730589653401436,14.730589653401436,14.730589653401438,14.730589653401436,14.730589653401436
0.0086,14.70347988117263,14.70347988117263,14.703479881172631,14.70347988117263,14.70347988117263,14.703479881172631
0.0088000000000000005,14.676420001023336,14.676420001023335,14.676420001023336,14.676420001023336,14.676420001023335,14.676420001023336
0.0090000000000000011,14.649409921133541,14.64940992113354,14.649409921133541,14.649409921133541,14.64940992113354,14.649409921133541
0.0091999999999999998,14.622449549852227,14.622449549852227,14.622449549852229,14.622449549852227,14.622449549852227,14.622449549852229
0.0094000000000000004,14.595538795697024,14.595538795697024,14.595538795697024,14.595538795697024,14.595538795697024,14.595538795697024
0.0096000000000000009,14.568677567353955,14.568677567353953,14.568677567353955,14.568677567353955,14.568677567353953,14.568677567353955
0.0097999999999999997,14.541865773677067,14.541865773677065,14.541865773677067,14.541865773677067,14.541865773677065,14.541865773677067
0.01,14.515103323688152,14.515103323688152,14.515103323688152,14.515103323688152,14.515103323688152,14.515103323688152
0.010200000000000001,14.488390126576457,14.488390126576455,14.488390126576457,14.488390126576457,14.488390126576455,14.488390126576457
0.010400000000000001,14.461726091698328,14.461726091698326,14.461726091698326,14.461726091698328,14.461726091698326,14.461726091698326
0.0106,14.435111128576954,14.435111128576953,14.435111128576953,14.435111128576954,14.435111128576953,14.435111128576953
0.010800000000000001,14.40854514690202,14.408545146902018,14.408545146902018,14.40854514690202,14.408545146902018,14.408545146902018
0.011000000000000001,14.382028056529403,14.382028056529402,14.382028056529405,14.382028056529403,14.382028056529402,14.382028056529405
0.0112,14.355559767480921,14.355559767480919,14.355559767480921,14.355559767480921,14.355559767480919,14.355559767480921
0.0114,14.329140189943935,14.329140189943933,14.329140189943935,14.329140189943935,14.329140189943933,14.329140189943935
0.011600000000000001,14.302769234271135,14.302769234271134,14.302769234271135,14.302769234271135,14.302769234271134,14.302769234271135
0.0118,14.276446810980175,14.276446810980175,14.276446810980175,14.276446810980175,14.276446810980175,14.276446810980175
0.012,14.25017283075338,14.250172830753378,14.250172830753378,14.25017283075338,14.250172830753378,14.250172830753378
0.012200000000000001,14.223947204437488,14.223947204437488,14.223947204437486,14.223947204437488,14.223947204437488,14.223947204437486
0.012400000000000001,14.197769843043272,14.197769843043272,14.19776984304327,14.197769843043272,14.197769843043272,14.19776984304327
0.0126,14.171640657745309,14.171640657745309,14.171640657745307,14.171640657745309,14.171640657745309,14.171640657745307
0.012800000000000001,14.145559559881635,14.145559559881635,14.145559559881635,14.145559559881635,14.145559559881635,14.145559559881635
0.013000000000000001,14.119526460953448,14.119526460953448,14.119526460953448,14.119526460953448,14.119526460953448,14.119526460953448
0.0132,14.093541272624842,14.09354127262484,14.093541272624842,14.093541272624842,14.09354127262484,14.093541272624842
0.0134,14.067603906722447,14.067603906722445,14.067603906722447,14.067603906722447,14.067603906722445,14.067603906722447
0.013600000000000001,14.041714275235204,14.041714275235202,14.041714275235204,14.041714275235204,14.041714275235202,14.041714275235204
0.013800000000000002,14.015872290314002,14.015872290314002,14.015872290314002,14.015872290314002,14.015872290314002,14.015872290314002
0.014,13.990077864271399,13.990077864271399,13.990077864271399,13.990077864271399,13.990077864271399,13.990077864271399
0.014200000000000001,13.964330909581362,13.96433090958136,13.964330909581362,13.964330909581362,13.96433090958136,13.964330909581362
0.014400000000000001,13.938631338878896,13.938631338878894,13.938631338878896,13.938631338878896,13.938631338878894,13.938631338878896
0.0146,13.912979064959837,13.912979064959837,13.912979064959837,13.912979064959837,13.912979064959837,13.912979064959837
0.014800000000000001,13.887374000780472,13.88737400078047,13.887374000780472,13.887374000780472,13.88737400078047,13.887374000780472
0.015000000000000001,13.861816059457286,13.861816059457283,13.861816059457286,13.861816059457286,13.861816059457283,13.861816059457286
0.0152,13.836305154266688,13.836305154266686,13.836305154266688,13.836305154266688,13.836305154266686,13.836305154266688
0.0154,13.810841198644656,13.810841198644656,13.810841198644656,13.810841198644656,13.810841198644656,13.810841198644656
0.015600000000000001,13.785424106186513,13.785424106186513,13.785424106186513,13.785424106186513,13.785424106186513,13.785424106186513
0.015800000000000002,13.760053790646568,13.760053790646568,13.76005379064657,13.760053790646568,13.760053790646568,13.76005379064657
0.016,13.734730165937863,13.734730165937863,13.734730165937863,13.734730165937863,13.734730165937863,13.734730165937863
0.016199999999999999,13.709453146131887,13.709453146131885,13.709453146131889,13.709453146131887,13.709453146131885,13.709453146131889
0.016400000000000001,13.684222645458249,13.684222645458247,13.684222645458249,13.684222645458249,13.684222645458247,13.684222645458249
0.0166,13.659038578304424,13.659038578304424,13.659038578304424,13.659038578304424,13.659038578304424,13.659038578304424
0.016800000000000002,13.633900859215437,13.633900859215437,13.633900859215437,13.633900859215437,13.633900859215437,13.633900859215437
0.017000000000000001,13.608809402893575,13.608809402893575,13.608809402893575,13.608809402893575,13.608809402893575,13.608809402893575
0.0172,13.583764124198131,13.58376412419813,13.58376412419813,13.583764124198131,13.58376412419813,13.58376412419813
0.017400000000000002,13.55876493814505,13.558764938145048,13.55876493814505,13.55876493814505,13.558764938145048,13.55876493814505
0.017600000000000001,13.533811759906717,13.533811759906717,13.533811759906715,13.533811759906717,13.533811759906717,13.533811759906715
0.0178,13.508904504811607,13.508904504811609,13.508904504811607,13.508904504811607,13.508904504811609,13.508904504811607
0.018000000000000002,13.484043088344023,13.484043088344023,13.484043088344023,13.484043088344023,13.484043088344023,13.484043088344023
0.018200000000000001,13.459227426143833,13.459227426143833,13.459227426143833,13.459227426143833,13.459227426143833,13.459227426143833
0.0184,13.434457434006131,13.434457434006131,13.434457434006131,13.434457434006131,13.434457434006131,13.434457434006131
0.018600000000000002,13.40973302788098,13.40973302788098,13.409733027880982,13.40973302788098,13.40973302788098,13.409733027880982
0.018800000000000001,13.385054123873156,13.385054123873154,13.385054123873154,13.385054123873156,13.385054123873154,13.385054123873154
0.019,13.360420638241791,13.360420638241791,13.360420638241791,13.360420638241791,13.360420638241791,13.360420638241791
0.019200000000000002,13.335832487400172,13.335832487400172,13.335832487400172,13.335832487400172,13.335832487400172,13.335832487400172
0.019400000000000001,13.311289587915393,13.311289587915393,13.311289587915393,13.311289587915393,13.311289587915393,13.311289587915393
0.019599999999999999,13.286791856508092,13.286791856508092,13.286791856508092,13.286791856508092,13.286791856508092,13.286791856508092
0.019800000000000002,13.262339210052197,13.262339210052195,13.262339210052199,13.262339210052197,13.262339210052195,13.262339210052199
0.02,13.237931565574582,13.237931565574582,13.237931565574582,13.237931565574582,13.237931565574582,13.237931565574582
0.020200000000000003,13.213568840254869,13.213568840254867,13.213568840254869,13.213568840254869,13.213568840254867,13.213568840254869
0.020400000000000001,13.189250951425057,13.189250951425056,13.189250951425059,13.189250951425057,13.189250951425056,13.189250951425059
0.0206,13.1649778165693,13.1649778165693,13.1649778165693,13.1649778165693,13.1649778165693,13.1649778165693
0.020800000000000003,13.140749353323628,13.140749353323628,13.140749353323629,13.140749353323628,13.140749353323628,13.140749353323629
0.021000000000000001,13.116565479475625,13.116565479475625,13.116565479475625,13.116565479475625,13.116565479475625,13.116565479475625
0.0212,13.092426112964203,13.092426112964201,13.092426112964203,13.092426112964203,13.092426112964201,13.092426112964203
0.021400000000000002,13.068331171879274,13.068331171879274,13.068331171879274,13.068331171879274,13.068331171879274,13.068331171879274
0.021600000000000001,13.044280574461498,13.044280574461498,13.044280574461498,13.044280574461498,13.044280574461498,13.044280574461498
0.0218,13.020274239102029,13.020274239102028,13.020274239102029,13.020274239102029,13.020274239102028,13.020274239102029
0.022000000000000002,12.99631208434217,12.996312084342168,12.99631208434217,12.99631208434217,12.996312084342168,12.99631208434217
0.022200000000000001,12.972394028873177,12.972394028873175,12.972394028873177,12.972394028873177,12.972394028873175,12.972394028873177
0.0224,12.948519991535921,12.948519991535921,12.948519991535921,12.948519991535921,12.948519991535921,12.948519991535921
0.022600000000000002,12.924689891320634,12.924689891320634,12.924689891320636,12.924689891320634,12.924689891320634,12.924689891320636
0.022800000000000001,12.900903647366663,12.900903647366663,12.900903647366663,12.900903647366663,12.900903647366663,12.900903647366663
0.023,12.87716117896213,12.877161178962128,12.87716117896213,12.87716117896213,12.877161178962128,12.87716117896213
0.023200000000000002,12.853462405543734,12.853462405543732,12.853462405543736,12.853462405543734,12.853462405543732,12.853462405543736
0.023400000000000001,12.82980724669642,12.82980724669642,12.829807246696419,12.82980724669642,12.82980724669642,12.829807246696419
0.023599999999999999,12.806195622153117,12.806195622153117,12.806195622153119,12.806195622153117,12.806195622153117,12.806195622153119
0.023800000000000002,12.782627451794507,12.782627451794507,12.782627451794507,12.782627451794507,12.782627451794507,12.782627451794507
0.024,12.759102655648691,12.75910265564869,12.759102655648691,12.759102655648691,12.75910265564869,12.759102655648691
0.024200000000000003,12.735621153890969,12.735621153890969,12.735621153890969,12.735621153890969,12.735621153890969,12.735621153890969
0.024400000000000002,12.712182866843536,12.712182866843534,12.712182866843536,12.712182866843536,12.712182866843534,12.712182866843536
0.0246,12.68878771497522,12.68878771497522,12.68878771497522,12.68878771497522,12.68878771497522,12.68878771497522
0.024800000000000003,12.665435618901236,12.665435618901235,12.665435618901236,12.665435618901236,12.665435618901235,12.665435618901236
0.025000000000000001,12.642126499382867,12.642126499382867,12.642126499382867,12.642126499382867,12.642126499382867,12.642126499382867
0.0252,12.618860277327261,12.618860277327261,12.618860277327263,12.618860277327261,12.618860277327261,12.618860277327263
0.025400000000000002,12.595636873787099,12.595636873787099,12.595636873787099,12.595636873787099,12.595636873787099,12.595636873787099
0.025600000000000001,12.572456209960352,12.572456209960352,12.572456209960352,12.572456209960352,12.572456209960352,12.572456209960352
0.0258,12.549318207190044,12.549318207190044,12.549318207190044,12.549318207190044,12.549318207190044,12.549318207190044
0.026000000000000002,12.526222786963922,12.526222786963924,12.526222786963924,12.526222786963922,12.526222786963924,12.526222786963924
0.026200000000000001,12.503169870914261,12.503169870914261,12.503169870914261,12.503169870914261,12.503169870914261,12.503169870914261
0.0264,12.480159380817531,12.480159380817531,12.480159380817531,12.480159380817531,12.480159380817531,12.480159380817531
0.026600000000000002,12.45719123859417,12.457191238594168,12.45719123859417,12.45719123859417,12.457191238594168,12.45719123859417
0.026800000000000001,12.434265366308329,12.434265366308329,12.434265366308329,12.434265366308329,12.434265366308329,12.434265366308329
0.027,12.411381686167568,12.411381686167568,12.411381686167568,12.411381686167568,12.411381686167568,12.411381686167568
0.027200000000000002,12.388540120522629,12.388540120522627,12.388540120522629,12.388540120522629,12.388540120522627,12.388540120522629
0.027400000000000001,12.36574059186715,12.36574059186715,12.36574059186715,12.36574059186715,12.36574059186715,12.36574059186715
0.027600000000000003,12.342983022837405,12.342983022837405,12.342983022837405,12.342983022837405,12.342983022837405,12.342983022837405
0.027800000000000002,12.320267336212064,12.320267336212064,12.320267336212064,12.320267336212064,12.320267336212064,12.320267336212064
0.028000000000000001,12.297593454911887,12.297593454911887,12.297593454911887,12.297593454911887,12.297593454911887,12.297593454911887
0.028200000000000003,12.274961301999516,12.274961301999515,12.274961301999516,12.274961301999516,12.274961301999515,12.274961301999516
0.028400000000000002,12.252370800679172,12.252370800679172,12.252370800679172,12.252370800679172,12.252370800679172,12.252370800679172
0.0286,12.229821874296396,12.229821874296396,12.229821874296398,12.229821874296396,12.229821874296396,12.229821874296398
0.028800000000000003,12.207314446337834,12.207314446337834,12.207314446337834,12.207314446337834,12.207314446337834,12.207314446337834
0.029000000000000001,12.184848440430915,12.184848440430914,12.184848440430914,12.184848440430915,12.184848440430914,12.184848440430914
0.0292,12.162423780343639,12.162423780343637,12.162423780343639,12.162423780343639,12.162423780343637,12.162423780343639
0.029400000000000003,12.140040389984298,12.140040389984296,12.140040389984298,12.140040389984298,12.140040389984296,12.140040389984298
0.029600000000000001,12.11769819340121,12.11769819340121,12.117698193401209,12.11769819340121,12.11769819340121,12.117698193401209
0.0298,12.095397114782495,12.095397114782495,12.095397114782497,12.095397114782495,12.095397114782495,12.095397114782497
0.030000000000000002,12.073137078455767,12.073137078455767,12.073137078455765,12.073137078455767,12.073137078455767,12.073137078455765
0.030200000000000001,12.050918008887935,12.050918008887933,12.050918008887935,12.050918008887935,12.050918008887933,12.050918008887935
