"time","iL","iLL","vC","vCC"
0,0.0015915494309189533,0.01,15.915494309189533,0.01
0.00020000000000000001,0.0015944838752077746,0.010018437657240259,15.886203871007286,0.010018437657240257
0.00040000000000000002,0.001597423729924395,0.01003690930920097,15.856967338142214,0.01003690930920097
0.00060000000000000006,0.001600369005044375,0.010055415018560431,15.827784611388475,0.010055415018560431
0.00080000000000000004,0.0016033197105616698,0.010073954848112512,15.798655591722758,0.010073954848112512
0.001,0.0016062758564886583,0.010092528860766845,15.769580180304041,0.010092528860766845
0.0012000000000000001,0.0016092374528561824,0.010111137119549068,15.740558278473165,0.010111137119549066
0.0014,0.0016122045097135781,0.010129779687601021,15.711589787752542,0.010129779687601021
0.0016000000000000001,0.0016151770371287074,0.010148456628180952,15.68267460984586,0.010148456628180952
0.0018000000000000002,0.0016181550451879996,0.01016716800466376,15.653812646637661,0.01016716800466376
0.002,0.0016211385439964766,0.010185913880541171,15.625003800193094,0.010185913880541169
0.0022000000000000001,0.0016241275436777944,0.010204694319421989,15.596247972757517,0.010204694319421989
0.0024000000000000002,0.0016271220543742746,0.010223509385032305,15.567545066756196,0.010223509385032305
0.0026000000000000003,0.0016301220862469362,0.010242359141215684,15.538894984793998,0.010242359141215683
0.0028,0.0016331276494755361,0.010261243651933424,15.510297629654993,0.010261243651933424
0.0030000000000000001,0.0016361387542585982,0.010280162981264735,15.481752904302208,0.010280162981264735
0.0032000000000000002,0.0016391554108134503,0.01029911719340699,15.453260711877212,0.01029911719340699
0.0034000000000000002,0.0016421776293762604,0.010318106352675922,15.424820955699849,0.010318106352675924
0.0036000000000000003,0.0016452054202020663,0.010337130523505839,15.39643353926791,0.010337130523505839
0.0038,0.0016482387935648169,0.010356189770449865,15.368098366256739,0.010356189770449865
0.0040000000000000001,0.0016512777597574013,0.010375284158180127,15.339815340519007,0.010375284158180127
0.0042000000000000006,0.0016543223290916881,0.010394413751488007,15.31158436608429,0.010394413751488007
0.0044000000000000003,0.0016573725118985583,0.010413578615284346,15.283405347158801,0.010413578615284348
0.0045999999999999999,0.0016604283185279395,0.010432778814599655,15.255278188125061,0.010432778814599655
0.0048000000000000004,0.001663489759348844,0.010452014414584362,15.227202793541531,0.010452014414584362
0.0050000000000000001,0.0016665568447493994,0.010471285480508996,15.19917906814236,0.010471285480508996
0.0052000000000000006,0.0016696295851368888,0.010490592077764448,15.171206916836994,0.010490592077764446
0.0054000000000000003,0.0016727079909377841,0.01050993427186217,15.143286244709881,0.01050993427186217
0.0055999999999999999,0.0016757920725977793,0.010529312128434394,15.115416957020166,0.010529312128434394
0.0058000000000000005,0.00167888184058183,0.010548725713234374,15.087598959201337,0.010548725713234374
0.0060000000000000001,0.0016819773053741839,0.010568175092136584,15.059832156860937,0.010568175092136586
0.0062000000000000006,0.0016850784774784223,0.010587660331136969,15.032116455780207,0.010587660331136969
0.0064000000000000003,0.0016881853674174912,0.010607181496353153,15.004451761913785,0.010607181496353152
0.0066,0.0016912979857337373,0.010626738654024649,14.97683798138941,0.010626738654024649
0.0068000000000000005,0.001694416342988948,0.010646331870513125,14.949275020507557,0.010646331870513124
0.0070000000000000001,0.00169754044976438,0.010665961212302578,14.921762785741167,0.010665961212302578
0.0072000000000000007,0.0017006703166608027,0.010685626745999611,14.894301183735276,0.010685626745999611
0.0074000000000000003,0.0017038059542985309,0.010705328538333623,14.866890121306747,0.010705328538333623
0.0076,0.0017069473733174576,0.010725066656157037,14.839529505443942,0.010725066656157037
0.0078000000000000005,0.0017100945843770961,0.010744841166445552,14.812219243306377,0.010744841166445552
0.0080000000000000002,0.0017132475981566132,0.010764652136298349,14.78495924222444,0.010764652136298349
0.0082000000000000007,0.0017164064253548639,0.010784499632938318,14.757749409699075,0.010784499632938318
0.0084000000000000012,0.0017195710766904318,0.010804383723712303,14.730589653401438,0.010804383723712303
0.0086,0.0017227415629016596,0.010824304476091303,14.70347988117263,0.010824304476091305
0.0088000000000000005,0.0017259178947466925,0.01084426195767074,14.676420001023336,0.01084426195767074
0.0090000000000000011,0.0017291000830035098,0.010864256236170655,14.649409921133541,0.010864256236170655
0.0091999999999999998,0.0017322881384699619,0.01088428737943594,14.622449549852227,0.01088428737943594
0.0094000000000000004,0.0017354820719638099,0.010904355455436596,14.595538795697024,0.010904355455436596
0.0096000000000000009,0.0017386818943227579,0.010924460532267923,14.568677567353955,0.010924460532267923
0.0097999999999999997,0.0017418876164044946,0.01094460267815079,14.541865773677067,0.01094460267815079
0.01,0.0017450992490867269,0.010964781961431851,14.515103323688152,0.010964781961431851
0.010200000000000001,0.001748316803267216,0.010984998450583754,14.488390126576457,0.010984998450583755
0.010400000000000001,0.0017515402898638191,0.011005252214205423,14.461726091698328,0.011005252214205423
0.0106,0.0017547697198145205,0.011025543321022234,14.435111128576954,0.011025543321022234
0.010800000000000001,0.0017580051040774728,0.011045871839886296,14.40854514690202,0.011045871839886295
0.011000000000000001,0.0017612464536310337,0.011066237839776664,14.382028056529403,0.011066237839776664
0.0112,0.0017644937794738008,0.011086641389799562,14.355559767480921,0.011086641389799562
0.0114,0.0017677470926246522,0.011107082559188644,14.329140189943935,0.011107082559188644
0.011600000000000001,0.0017710064041227796,0.0111275614173052,14.302769234271135,0.0111275614173052
0.0118,0.001774271725027731,0.011148078033638419,14.276446810980175,0.011148078033638419
0.012,0.001777543066419446,0.011168632477805612,14.25017283075338,0.011168632477805612
0.012200000000000001,0.0017808204393982899,0.01118922481955243,14.223947204437488,0.01118922481955243
0.012400000000000001,0.0017841038550850982,0.011209855128753145,14.197769843043272,0.011209855128753145
0.0126,0.0017873933246212062,0.011230523475410835,14.171640657745309,0.011230523475410835
0.012800000000000001,0.0017906888591684952,0.011251229929657663,14.145559559881635,0.011251229929657663
0.013000000000000001,0.0017939904699094257,0.011271974561755105,14.119526460953448,0.011271974561755105
0.0132,0.0017972981680470733,0.011292757442094159,14.093541272624842,0.011292757442094159
0.0134,0.001800611964805174,0.011313578641195634,14.067603906722447,0.011313578641195634
0.013600000000000001,0.0018039318714281524,0.011334438229710342,14.041714275235204,0.011334438229710342
0.013800000000000002,0.001807257899181169,0.011355336278419368,14.015872290314002,0.011355336278419368
0.014,0.0018105900593501552,0.01137627285823431,13.990077864271399,0.01137627285823431
0.014200000000000001,0.0018139283632418468,0.011397248040197486,13.964330909581362,0.011397248040197486
0.014400000000000001,0.0018172728221838312,0.011418261895482229,13.938631338878896,0.011418261895482229
0.0146,0.001820623447524577,0.011439314495393068,13.912979064959837,0.011439314495393068
0.014800000000000001,0.0018239802506334808,0.011460405911366024,13.887374000780472,0.011460405911366024
0.015000000000000001,0.0018273432429008994,0.011481536214968828,13.861816059457286,0.01148153621496883
0.0152,0.0018307124357381901,0.011502705477901148,13.836305154266688,0.011502705477901149
0.0154,0.0018340878405777527,0.011523913771994871,13.810841198644656,0.011523913771994873
0.015600000000000001,0.0018374694688730621,0.011545161169214304,13.785424106186513,0.011545161169214304
0.015800000000000002,0.0018408573320987144,0.011566447741656454,13.760053790646568,0.011566447741656456
0.016,0.0018442514417504605,0.011587773561551261,13.734730165937863,0.011587773561551261
0.016199999999999999,0.0018476518093452452,0.011609138701261823,13.709453146131887,0.011609138701261823
0.016400000000000001,0.0018510584464212507,0.011630543233284675,13.684222645458249,0.011630543233284675
0.0166,0.0018544713645379306,0.011651987230250006,13.659038578304424,0.011651987230250006
0.016800000000000002,0.001857890575276053,0.011673470764921926,13.633900859215437,0.011673470764921926
0.017000000000000001,0.0018613160902377385,0.011694993910198711,13.608809402893575,0.011694993910198712
0.0172,0.0018647479210464964,0.011716556739113025,13.583764124198131,0.011716556739113025
0.017400000000000002,0.0018681860793472711,0.011738159324832211,13.55876493814505,0.011738159324832211
0.017600000000000001,0.0018716305768064737,0.01175980174065849,13.533811759906717,0.01175980174065849
0.0178,0.0018750814251120281,0.011781484060029254,13.508904504811607,0.011781484060029254
0.018000000000000002,0.001878538635973408,0.011803206356517298,13.484043088344023,0.011803206356517298
0.018200000000000001,0.0018820022211216739,0.011824968703831049,13.459227426143833,0.011824968703831047
0.0184,0.0018854721923095184,0.011846771175814848,13.434457434006131,0.011846771175814848
0.018600000000000002,0.0018889485613113033,0.011868613846449199,13.40973302788098,0.011868613846449199
0.018800000000000001,0.0018924313399230968,0.011890496789850978,13.385054123873156,0.011890496789850978
0.019,0.0018959205399627199,0.011912420080273749,13.360420638241791,0.011912420080273749
0.019200000000000002,0.0018994161732697795,0.011934383792107954,13.335832487400172,0.011934383792107955
0.019400000000000001,0.0019029182517057146,0.011956387999881211,13.311289587915393,0.011956387999881211
0.019599999999999999,0.0019064267871538338,0.011978432778258552,13.286791856508092,0.011978432778258552
0.019800000000000002,0.0019099417915193523,0.012000518202042652,13.262339210052197,0.012000518202042652
0.02,0.001913463276729441,0.012022644346174132,13.237931565574582,0.012022644346174132
0.020200000000000003,0.0019169912547332571,0.01204481128573176,13.213568840254869,0.012044811285731758
0.020400000000000001,0.0019205257375019911,0.01206701909593275,13.189250951425057,0.01206701909593275
0.0206,0.0019240667370289074,0.012089267852133,13.1649778165693,0.012089267852133
0.020800000000000003,0.0019276142653293791,0.012111557629827329,13.140749353323628,0.012111557629827329
0.021000000000000001,0.0019311683344409377,0.012133888504649774,13.116565479475625,0.012133888504649774
0.0212,0.0019347289564233038,0.012156260552373798,13.092426112964203,0.012156260552373798
0.021400000000000002,0.0019382961433584375,0.012178673848912592,13.068331171879274,0.01217867384891259
0.021600000000000001,0.0019418699073505742,0.012201128470319312,13.044280574461498,0.012201128470319312
0.0218,0.0019454502605262638,0.01222362449278732,13.020274239102029,0.01222362449278732
0.022000000000000002,0.0019490372150344204,0.01224616199265049,12.99631208434217,0.01224616199265049
0.022200000000000001,0.0019526307830463512,0.012268741046383405,12.972394028873177,0.012268741046383405
0.0224,0.0019562309767558097,0.012291361730601675,12.948519991535921,0.012291361730601675
0.022600000000000002,0.0019598378083790307,0.012314024122062166,12.924689891320634,0.012314024122062166
0.022800000000000001,0.0019634512901547697,0.01233672829766325,12.900903647366663,0.01233672829766325
0.023,0.0019670714343443521,0.012359474334445106,12.87716117896213,0.012359474334445108
0.023200000000000002,0.0019706982532317063,0.012382262309589933,12.853462405543734,0.012382262309589933
0.023400000000000001,0.0019743317591234123,0.012405092300422249,12.82980724669642,0.012405092300422251
0.023599999999999999,0.0019779719643487404,0.01242796438440915,12.806195622153117,0.012427964384409152
0.023800000000000002,0.0019816188812596908,0.012450878639160537,12.782627451794507,0.012450878639160537
0.024,0.0019852725222310407,0.012473835142429434,12.759102655648691,0.012473835142429432
0.024200000000000003,0.0019889328996603802,0.012496833972112192,12.735621153890969,0.012496833972112192
0.024400000000000002,0.0019926000259681614,0.012519875206248813,12.712182866843536,0.012519875206248813
0.0246,0.001996273913597735,0.01254295892302318,12.68878771497522,0.01254295892302318
0.024800000000000003,0.0019999545750153933,0.012566085200763313,12.665435618901236,0.012566085200763313
0.025000000000000001,0.0020036420227104164,0.012589254117941673,12.642126499382867,0.012589254117941675
0.0252,0.0020073362691951074,0.012612465753175385,12.618860277327261,0.012612465753175385
0.025400000000000002,0.0020110373270048427,0.012635720185226539,12.595636873787099,0.012635720185226539
0.025600000000000001,0.0020147452086981123,0.012659017493002448,12.572456209960352,0.012659017493002446
0.0258,0.0020184599268565548,0.012682357755555887,12.549318207190044,0.012682357755555887
0.026000000000000002,0.002022181494085013,0.012705741052085419,12.526222786963922,0.012705741052085419
0.026200000000000001,0.0020259099230115663,0.012729167461935602,12.503169870914261,0.0127291674619356
0.0264,0.002029645226287579,0.012752637064597302,12.480159380817531,0.012752637064597302
0.026600000000000002,0.0020333874165877415,0.012776149939707953,12.45719123859417,0.012776149939707953
0.026800000000000001,0.0020371365066101112,0.0127997061670518,12.434265366308329,0.0127997061670518
0.027,0.0020408925090761617,0.012823305826560218,12.411381686167568,0.012823305826560218
0.027200000000000002,0.0020446554367308171,0.01284694899831193,12.388540120522629,0.01284694899831193
0.027400000000000001,0.0020484253023425043,0.012870635762533323,12.36574059186715,0.012870635762533325
0.027600000000000003,0.0020522021187031917,0.01289436619959871,12.342983022837405,0.01289436619959871
0.027800000000000002,0.0020559858986284297,0.012918140390030567,12.320267336212064,0.012918140390030565
0.028000000000000001,0.0020597766549574018,0.012941958414499863,12.297593454911887,0.012941958414499863
0.028200000000000003,0.0020635744005529605,0.012965820353826284,12.274961301999516,0.012965820353826285
0.028400000000000002,0.0020673791483016772,0.012989726288978546,12.252370800679172,0.012989726288978544
0.0286,0.0020711909111138824,0.013013676301074648,12.229821874296396,0.013013676301074646
0.028800000000000003,0.002075009701923708,0.013037670471382134,12.207314446337834,0.013037670471382134
0.029000000000000001,0.002078835533689137,0.013061708881318418,12.184848440430915,0.013061708881318418
0.0292,0.0020826684193920395,0.013085791612450996,12.162423780343639,0.013085791612450996
0.029400000000000003,0.0020865083720382257,0.013109918746497777,12.140040389984298,0.013109918746497777
0.029600000000000001,0.0020903554046574832,0.013134090365327337,12.11769819340121,0.013134090365327339
0.0298,0.0020942095303036227,0.013158306550959184,12.095397114782495,0.013158306550959186
0.030000000000000002,0.0020980707620545259,0.013182567385564075,12.073137078455767,0.013182567385564075
0.030200000000000001,0.0021019391130121827,0.013206872951464237,12.050918008887935,0.013206872951464237
0.0304,0.0021058145963027434,0.013231223331133709,12.028739830684897,0.013231223331133709
0.030600000000000002,0.0021096972250765609,0.013255618607198592,12.006602468591298,0.01325561860719859
0.030800000000000001,0.0021135870125082289,0.013280058862437301,11.984505847490309,0.013280058862437301
0.031,0.0021174839717966387,0.013304544179780914,11.962449892403315,0.013304544179780914
0.031200000000000002,0.0021213881161650113,0.013329074642313381,11.94043452848971,0.013329074642313381
0.031400000000000004,0.002125299458860952,0.01335365033327186,11.918459681046615,0.013353650333271858
0.031600000000000003,0.0021292180131564915,0.013378271336046977,11.896525275508621,0.013378271336046977
0.031800000000000002,0.0021331437923481278,0.013402937734183098,11.87463123744757,0.013402937734183096
0.032000000000000001,0.0021370768097568786,0.013427649611378642,11.852777492572255,0.013427649611378642
0.032199999999999999,0.0021410170787283184,0.01345240705148633,11.830963966728216,0.013452407051486329
0.032399999999999998,0.0021449646126326313,0.013477210138513503,11.809190585897452,0.013477210138513503
0.032600000000000004,0.002148919424864653,0.013502058956622393,11.787457276198174,0.013502058956622393
0.032800000000000003,0.0021528815288439111,0.013526953590130387,11.765763963884586,0.013526953590130389
0.033000000000000002,0.0021568509380146829,0.013551894123510363,11.744110575346589,0.013551894123510363
0.0332,0.0021608276658460273,0.013576880641390919,11.722497037109571,0.013576880641390919
0.033399999999999999,0.0021648117258318404,0.013601913228556703,11.700923275834134,0.013601913228556703
0.033600000000000005,0.0021688031314908993,0.013626991969948696,11.679389218315841,0.013626991969948696
0.033800000000000004,0.002172801896366902,0.013652116950664461,11.657894791485003,0.013652116950664461
0.034000000000000002,0.0021768080340285227,0.013677288255958495,11.636439922406378,0.013677288255958495
0.034200000000000001,0.0021808215580694486,0.013702505971242451,11.615024538278982,0.013702505971242451
0.0344,0.0021848424821084337,0.013727770182085486,11.593648566435789,0.013727770182085486
0.034599999999999999,0.0021888708197893413,0.013753080974214526,11.572311934343505,0.013753080974214524
0.034800000000000005,0.0021929065847811889,0.013778438433514532,11.55101456960235,0.013778438433514532
0.035000000000000003,0.0021969497907782004,0.013803842646028852,11.529756399945759,0.013803842646028852
0.035200000000000002,0.0022010004514998426,0.013829293697959445,11.508537353240182,0.013829293697959445
0.035400000000000001,0.0022050585806908832,0.013854791675667229,11.487357357484816,0.013854791675667229
0.0356,0.002209124192121431,0.013880336665672347,11.466216340811361,0.013880336665672347
0.035799999999999998,0.0022131972995869803,0.013905928754654451,11.445114231483792,0.013905928754654451
0.036000000000000004,0.0022172779169084664,0.013931568029453036,11.424050957898089,0.013931568029453036
0.036200000000000003,0.0022213660579323011,0.013957254577067672,11.403026448582034,0.013957254577067674
0.036400000000000002,0.002225461736530431,0.013982988484658372,11.382040632194926,0.013982988484658372
0.036600000000000001,0.0022295649666003781,0.01400876983954584,11.361093437527352,0.01400876983954584
0.036799999999999999,0.0022336757620652842,0.014034598729211759,11.340184793500978,0.014034598729211759
0.037000000000000005,0.0022377941368739687,0.014060475241299143,11.319314629168247,0.014060475241299143
0.037200000000000004,0.0022419201050009625,0.014086399463612563,11.298482873712206,0.014086399463612563
0.037400000000000003,0.0022460536804465676,0.014112371484118506,11.277689456446204,0.014112371484118506
0.037600000000000001,0.0022501948772368978,0.014138391390945649,11.256934306813687,0.014138391390945649
0.0378,0.0022543437094239261,0.014164459272385138,11.236217354387961,0.014164459272385136
0.037999999999999999,0.0022585001910855342,0.014190575216890917,11.215538528871937,0.014190575216890919
0.038200000000000005,0.0022626643363255648,0.014216739313080038,11.194897760097891,0.014216739313080038
0.038400000000000004,0.0022668361592738575,0.014242951649732907,11.17429497802725,0.014242951649732905
0.038600000000000002,0.0022710156740863101,0.014269212315793646,11.153730112750321,0.014269212315793646
0.038800000000000001,0.0022752028949449155,0.014295521400370352,11.133203094486092,0.014295521400370352
0.039,0.0022793978360578187,0.014321878992735432,11.112713853581949,0.014321878992735432
0.039199999999999999,0.0022836005116593622,0.014348285182325889,11.092262320513479,0.014348285182325889
0.039400000000000004,0.0022878109360101274,0.014374740058743608,11.071848425884227,0.014374740058743608
0.039600000000000003,0.0022920291233969954,0.014401243711755708,11.051472100425428,0.014401243711755708
